"Freq [GHz]","Phi [deg]","Theta [deg]","dB(GainPhi) []","dB(GainTheta) []"
0.914,45,-180,-7.46056926557685,-24.6902139844191
0.914,45,-178,-7.42138040034134,-23.8362221510641
0.914,45,-176,-7.42371084705897,-23.1269335724819
0.914,45,-174,-7.4677071851275,-22.5416314171546
0.914,45,-172,-7.55381273224569,-22.0638012779182
0.914,45,-170,-7.68278394040788,-21.6802363372078
0.914,45,-168,-7.85571879643913,-21.3802438646598
0.914,45,-166,-8.07409996700841,-21.1550175119621
0.914,45,-164,-8.33985682636809,-20.9971566817619
0.914,45,-162,-8.65545246067609,-20.900299655746
0.914,45,-160,-9.02400460714414,-20.8588406965577
0.914,45,-158,-9.44945384755282,-20.8677082416916
0.914,45,-156,-9.93679924998166,-20.9221876120434
0.914,45,-154,-10.4924328555621,-21.0177766061045
0.914,45,-152,-11.1246233051637,-21.1500660696238
0.914,45,-150,-11.8442319998302,-21.3146403197962
0.914,45,-148,-12.6658056641461,-21.5069944338205
0.914,45,-146,-13.609305188007,-21.7224670818477
0.914,45,-144,-14.7029661559108,-21.9561889189867
0.914,45,-142,-15.9882977570465,-22.2030476138593
0.914,45,-140,-17.5294275360674,-22.4576713978251
0.914,45,-138,-19.4320857274021,-22.7144335505523
0.914,45,-136,-21.8861851061303,-22.9674804536485
0.914,45,-134,-25.2694906319327,-23.2107856918641
0.914,45,-132,-30.2952042315459,-23.4382320969518
0.914,45,-130,-33.9540624533276,-23.6437225278981
0.914,45,-128,-28.5294777482424,-23.8213184457351
0.914,45,-126,-24.0296216758528,-23.9654028333748
0.914,45,-124,-20.932980805882,-24.0708606451484
0.914,45,-122,-18.6173339402945,-24.1332658730007
0.914,45,-120,-16.7765539109186,-24.1490600323527
0.914,45,-118,-15.2512902515464,-24.1157034903384
0.914,45,-116,-13.9496755926529,-24.0317800683314
0.914,45,-114,-12.8142425523446,-23.8970381052565
0.914,45,-112,-11.8067160517421,-23.7123581348958
0.914,45,-110,-10.9003269137893,-23.4796475151672
0.914,45,-108,-10.0756110212959,-23.2016733679899
0.914,45,-106,-9.31796322436428,-22.8818541097756
0.914,45,-104,-8.6161373019082,-22.5240343850986
0.914,45,-102,-7.96128580001355,-22.13226760284
0.914,45,-100,-7.34632297721043,-21.710625404985
0.914,45,-98,-6.76548907787727,-21.2630462004127
0.914,45,-96,-6.21404445071341,-20.7932274466001
0.914,45,-94,-5.68804992925766,-20.3045601987606
0.914,45,-92,-5.18420600576663,-19.8001002996045
0.914,45,-90,-4.69973297200105,-19.2825684791974
0.914,45,-88,-4.23228015348783,-18.7543711715413
0.914,45,-86,-3.77985614354049,-18.2176344827518
0.914,45,-84,-3.34077440468246,-17.6742449565332
0.914,45,-82,-2.91361024543569,-17.1258921954371
0.914,45,-80,-2.49716629708282,-16.5741097705495
0.914,45,-78,-2.09044439027986,-16.0203120614546
0.914,45,-76,-1.69262227958048,-15.4658256638139
0.914,45,-74,-1.30303405818823,-14.9119147800971
0.914,45,-72,-0.921153393311661,-14.3598005885007
0.914,45,-70,-0.54657892607188,-13.8106749928175
0.914,45,-68,-0.179021340439489,-13.2657094203263
0.914,45,-66,0.181708272119098,-12.7260594825148
0.914,45,-64,0.535709031471223,-12.1928663692038
0.914,45,-62,0.883000077022239,-11.6672558326182
0.914,45,-60,1.223529713649,-11.1503355539244
0.914,45,-58,1.5571839983128,-10.6431915879658
0.914,45,-56,1.8837948345304,-10.1468844668704
0.914,45,-54,2.20314761402982,-9.66244542148685
0.914,45,-52,2.51498842384424,-9.19087305997973
0.914,45,-50,2.81903082203302,-8.73313073151802
0.914,45,-48,3.11496217561044,-8.29014470369893
0.914,45,-46,3.40244954961802,-7.86280319728846
0.914,45,-44,3.68114513605315,-7.4519562518896
0.914,45,-42,3.95069121488576,-7.05841634129324
0.914,45,-40,4.21072464580328,-6.68295961706053
0.914,45,-38,4.46088089760145,-6.32632763257364
0.914,45,-36,4.70079763115951,-5.98922938644195
0.914,45,-34,4.93011786056428,-5.67234352265894
0.914,45,-32,5.14849272415309,-5.37632053397509
0.914,45,-30,5.35558390223563,-5.10178483304753
0.914,45,-28,5.5510657205729,-4.84933658126047
0.914,45,-26,5.73462697827197,-4.61955319567185
0.914,45,-24,5.90597253593192,-4.41299048817484
0.914,45,-22,6.0648246953134,-4.23018342549761
0.914,45,-20,6.2109243963865,-4.07164653206546
0.914,45,-18,6.34403225228085,-3.93787398827385
0.914,45,-16,6.46392943825664,-3.82933950305401
0.914,45,-14,6.57041844791297,-3.74649606095232
0.914,45,-12,6.66332372867428,-3.68977566003407
0.914,45,-10,6.74249220897046,-3.65958916801273
0.914,45,-8,6.80779373092697,-3.656326430773
0.914,45,-6,6.85912140403678,-3.68035677087842
0.914,45,-4,6.89639189634397,-3.7320300148725
0.914,45,-2,6.9195456793713,-3.81167818838771
0.914,45,0,6.92854724087283,-3.91961801841631
0.914,45,2,6.92338527535928,-4.0561543836532
0.914,45,4,6.90407285651444,-4.22158485763804
0.914,45,6,6.87064758875402,-4.41620549661675
0.914,45,8,6.8231717281861,-4.64031803595772
0.914,45,10,6.76173225711909,-4.89423867740441
0.914,45,12,6.68644089192454,-5.1783086769674
0.914,45,14,6.59743400212589,-5.49290698347711
0.914,45,16,6.49487241927495,-5.83846523583859
0.914,45,18,6.3789411172802,-6.21548550997594
0.914,45,20,6.24984875073575,-6.62456132419507
0.914,45,22,6.10782704354314,-7.06640257791727
0.914,45,24,5.95313002565951,-7.54186533259568
0.914,45,26,5.78603312013891,-8.05198767234772
0.914,45,28,5.60683208497855,-8.59803334491673
0.914,45,30,5.41584181421058,-9.18154553962675
0.914,45,32,5.21339500018109,-9.80441409702765
0.914,45,34,4.99984065441742,-10.4689608031997
0.914,45,36,4.77554247860718,-11.1780494196962
0.914,45,38,4.5408770708827,-11.9352300939236
0.914,45,40,4.29623194673886,-12.7449323747708
0.914,45,42,4.04200334930263,-13.6127282256327
0.914,45,44,3.77859382087527,-14.5456979190928
0.914,45,46,3.50640950693932,-15.552950600348
0.914,45,48,3.22585716510456,-16.6463832174077
0.914,45,50,2.93734085443825,-17.8418167301078
0.914,45,52,2.64125828477414,-19.1607458384894
0.914,45,54,2.3379968103205,-20.6331099697349
0.914,45,56,2.02792905659131,-22.3017768785209
0.914,45,58,1.71140817384178,-24.2297515813089
0.914,45,60,1.38876271338601,-26.5103621587215
0.914,45,62,1.06029112511139,-29.2695258760852
0.914,45,64,0.726255874963844,-32.5538536379926
0.914,45,66,0.38687717996798,-35.4365446900959
0.914,45,68,0.0423263552343731,-34.9927180645153
0.914,45,70,-0.30728123795107,-32.2503673352194
0.914,45,72,-0.661893661977648,-29.6804874484522
0.914,45,74,-1.02153032132982,-27.6486600960593
0.914,45,76,-1.38629037628965,-26.043696438232
0.914,45,78,-1.75636172045593,-24.7481644200819
0.914,45,80,-2.13203061974394,-23.6796865440215
0.914,45,82,-2.5136921488835,-22.7824241411019
0.914,45,84,-2.90186161134404,-22.0177730290851
0.914,45,86,-3.29718719293832,-21.3582642472852
0.914,45,88,-3.70046418164246,-20.7838064515602
0.914,45,90,-4.11265119090063,-20.2793536650219
0.914,45,92,-4.5348889565999,-19.8334223692876
0.914,45,94,-4.96852244641534,-19.4371225367323
0.914,45,96,-5.41512723387862,-19.0835075446271
0.914,45,98,-5.87654136039386,-18.7671272603414
0.914,45,100,-6.35490425117239,-18.4837138663244
0.914,45,102,-6.85270468186955,-18.229956411995
0.914,45,104,-7.37284032536652,-18.0033359062386
0.914,45,106,-7.91869204311372,-17.8020025092
0.914,45,108,-8.49421678234442,-17.6246825475847
0.914,45,110,-9.10406355119455,-17.4706070824345
0.914,45,112,-9.75371705229016,-17.3394564258573
0.914,45,114,-10.4496720918765,-17.2313168235225
0.914,45,116,-11.1996361813273,-17.1466467926654
0.914,45,118,-12.0127412108779,-17.0862515204911
0.914,45,120,-12.8997012198606,-17.0512644105128
0.914,45,122,-13.8727403556534,-17.0431354021608
0.914,45,124,-14.9448260128618,-17.0636261482074
0.914,45,126,-16.1270038565624,-17.1148125701441
0.914,45,128,-17.4207922410078,-17.1990957747013
0.914,45,130,-18.7984953882695,-17.3192228585092
0.914,45,132,-20.1587570742562,-17.4783198145837
0.914,45,134,-21.2581047560543,-17.6799396628131
0.914,45,136,-21.7214123776197,-17.9281301632224
0.914,45,138,-21.3250335580514,-18.2275271825035
0.914,45,140,-20.2662325123603,-18.5834821734893
0.914,45,142,-18.924094961726,-19.002235558853
0.914,45,144,-17.5568475874737,-19.4911523815574
0.914,45,146,-16.2760273019636,-20.0590425601665
0.914,45,148,-15.1147005326487,-20.7165948975145
0.914,45,150,-14.0743063350031,-21.4769583417597
0.914,45,152,-13.1457460764785,-22.3564934141451
0.914,45,154,-12.3175910514881,-23.3756483027451
0.914,45,156,-11.5789828245781,-24.5596424437443
0.914,45,158,-10.9204884959614,-25.9376641010729
0.914,45,160,-10.3342049281424,-27.535852754909
0.914,45,162,-9.81361259811977,-29.3476117889624
0.914,45,164,-9.35336884873383,-31.2321332556592
0.914,45,166,-8.94910885672898,-32.6844138746892
0.914,45,168,-8.59727542689894,-32.8763237656247
0.914,45,170,-8.29498086939164,-31.7259022273093
0.914,45,172,-8.03989802376575,-30.0389644333425
0.914,45,174,-7.83017588051539,-28.3849855352389
0.914,45,176,-7.66437536334143,-26.9380090021957
0.914,45,178,-7.54142152831985,-25.7144369065749
0.914,45,180,-7.46056926557685,-24.6902139844191
0.914,135,-180,-24.6902139844191,-7.46056926557686
0.914,135,-178,-24.7059891807689,-7.6924877986727
0.914,135,-176,-24.7770437674497,-7.98066053731056
0.914,135,-174,-24.9029992179144,-8.32778385476356
0.914,135,-172,-25.0835512100599,-8.73673091156624
0.914,135,-170,-25.3183772478823,-9.21053932104893
0.914,135,-168,-25.6069386970803,-9.75234494406737
0.914,135,-166,-25.9481289908881,-10.3652141361784
0.914,135,-164,-26.3396881241337,-11.0517870489476
0.914,135,-162,-26.7772631180725,-11.8135734610506
0.914,135,-160,-27.2529547121971,-12.6496202838941
0.914,135,-158,-27.7531922677584,-13.5540794167539
0.914,135,-156,-28.255932764961,-14.5119822123633
0.914,135,-154,-28.727713469419,-15.492539872891
0.914,135,-152,-29.1222670522666,-16.4404703284855
0.914,135,-150,-29.38397063102,-17.2701374669861
0.914,135,-148,-29.4593692179414,-17.87503301656
0.914,135,-146,-29.3150770655463,-18.1653545024507
0.914,135,-144,-28.9519256339983,-18.1184226641484
0.914,135,-142,-28.4041359770018,-17.7935861451805
0.914,135,-140,-27.7242278931608,-17.2941602146113
0.914,135,-138,-26.9654072077653,-16.7184774935044
0.914,135,-136,-26.1708593621335,-16.1365287742836
0.914,135,-134,-25.3709231824443,-15.589934430256
0.914,135,-132,-24.5847350612807,-15.1002378631545
0.914,135,-130,-23.823201808151,-14.6768890504938
0.914,135,-128,-23.0917361840822,-14.3227270476206
0.914,135,-126,-22.3923020984537,-14.0372804492618
0.914,135,-124,-21.7248012468446,-13.8186398949746
0.914,135,-122,-21.0879648677849,-13.6644947383589
0.914,135,-120,-20.4799093506578,-13.572707157857
0.914,135,-118,-19.8984747052488,-13.5416411200452
0.914,135,-116,-19.3414264653755,-13.5703699641583
0.914,135,-114,-18.8065729979549,-13.6588342515193
0.914,135,-112,-18.2918309465837,-13.8079942088139
0.914,135,-110,-17.7952591808653,-14.0200083461762
0.914,135,-108,-17.3150738574689,-14.2984660947494
0.914,135,-106,-16.8496523632336,-14.6487048873285
0.914,135,-104,-16.3975309058702,-15.0782497657018
0.914,135,-102,-15.957398648962,-15.5974249417518
0.914,135,-100,-15.5280901242595,-16.2201962930402
0.914,135,-98,-15.1085769306535,-16.9652890340906
0.914,135,-96,-14.6979592824849,-17.8574996519188
0.914,135,-94,-14.2954576987122,-18.9285603824099
0.914,135,-92,-13.900404965234,-20.2146657443522
0.914,135,-90,-13.5122384146145,-21.7389766997104
0.914,135,-88,-13.1304925240124,-23.43559280118
0.914,135,-86,-12.7547918156303,-24.9052440432546
0.914,135,-84,-12.3848440426366,-25.1682532879897
0.914,135,-82,-12.0204336493498,-23.7204177607333
0.914,135,-80,-11.6614155023173,-21.4478485568042
0.914,135,-78,-11.3077088955892,-19.1486295833539
0.914,135,-76,-10.9592918372508,-17.0637447131373
0.914,135,-74,-10.6161956244999,-15.2116083778013
0.914,135,-72,-10.2784997114086,-13.5599510063721
0.914,135,-70,-9.94632686767669,-12.0727234590723
0.914,135,-68,-9.6198386192244,-10.7198570415733
0.914,135,-66,-9.29923095356239,-9.47792618731793
0.914,135,-64,-8.98473026571881,-8.32895839003618
0.914,135,-62,-8.67658951515563,-7.25914083852659
0.914,135,-60,-8.37508456138736,-6.25777784705644
0.914,135,-58,-8.08051064642271,-5.31651251113473
0.914,135,-56,-7.79317899581105,-4.42875759640848
0.914,135,-54,-7.51341351673286,-3.58927969732108
0.914,135,-52,-7.24154758061515,-2.7938930858039
0.914,135,-50,-6.97792088828303,-2.03923183975098
0.914,135,-48,-6.72287642659617,-1.32257816970669
0.914,135,-46,-6.47675753572987,-0.641731490906409
0.914,135,-44,-6.23990511469132,0.00509262358068282
0.914,135,-42,-6.012654998463,0.619341316351394
0.914,135,-40,-5.79533554278767,1.20218667565045
0.914,135,-38,-5.58826545185231,1.75457533717549
0.914,135,-36,-5.3917518801389,2.27726840863638
0.914,135,-34,-5.20608883292936,2.77087391056056
0.914,135,-32,-5.03155588102834,3.23587338039598
0.914,135,-30,-4.86841719493986,3.67264388700312
0.914,135,-28,-4.71692089272864,4.08147640561075
0.914,135,-26,-4.5772986847405,4.4625912797579
0.914,135,-24,-4.44976578772739,4.81615132661974
0.914,135,-22,-4.33452107105939,5.14227301171312
0.914,135,-20,-4.23174738883936,5.44103601881495
0.914,135,-18,-4.14161204406928,5.71249146429073
0.914,135,-16,-4.06426732479274,5.95666894699162
0.914,135,-14,-3.9998510477041,6.1735825816274
0.914,135,-12,-3.9484870425345,6.36323613194933
0.914,135,-10,-3.91028551115187,6.52562733752584
0.914,135,-8,-3.88534319929334,6.66075151204397
0.914,135,-6,-3.87374332660739,6.76860447990608
0.914,135,-4,-3.87555523236552,6.84918490972196
0.914,135,-2,-3.89083370956077,6.90249609678955
0.914,135,0,-3.91961801841632,6.92854724087283
0.914,135,2,-3.96193059038098,6.92735425997655
0.914,135,4,-4.01777545390432,6.89894017519859
0.914,135,6,-4.08713643186235,6.84333509621707
0.914,135,8,-4.16997517567225,6.76057583182884
0.914,135,10,-4.2662291113961,6.65070514555067
0.914,135,12,-4.37580937751068,6.51377067291404
0.914,135,14,-4.49859883221619,6.34982351485213
0.914,135,16,-4.63445020062321,6.15891652038001
0.914,135,18,-4.7831844200453,5.94110227123528
0.914,135,20,-4.9445892266258,5.69643078067504
0.914,135,22,-5.1184180106318,5.42494691746609
0.914,135,24,-5.3043889529578,5.12668756347806
0.914,135,26,-5.5021844434352,4.80167850852265
0.914,135,28,-5.71145077368502,4.44993107876584
0.914,135,30,-5.93179809409075,4.07143848516421
0.914,135,32,-6.16280062594734,3.66617186645513
0.914,135,34,-6.40399712530025,3.23407598841115
0.914,135,36,-6.65489160332021,2.77506454924666
0.914,135,38,-6.91495431792274,2.28901503303422
0.914,135,40,-7.18362306137772,1.77576305270855
0.914,135,42,-7.46030477768615,1.2350961373017
0.914,135,44,-7.74437755066275,0.666746952535532
0.914,135,46,-8.03519300846186,0.070386011803602
0.914,135,48,-8.33207919256491,-0.554385945687732
0.914,135,50,-8.63434393910424,-1.20804553237418
0.914,135,52,-8.94127881802274,-1.89115354075661
0.914,135,54,-9.25216367110471,-2.60435978932701
0.914,135,56,-9.56627178333461,-3.34840390109505
0.914,135,58,-9.882875713082,-4.12410855829457
0.914,135,60,-10.2012537947976,-4.93235956343807
0.914,135,62,-10.5206973126512,-5.77406345981833
0.914,135,64,-10.8405183243461,-6.65006768892603
0.914,135,66,-11.1600580910127,-7.56101898890505
0.914,135,68,-11.4786960419878,-8.50712105953008
0.914,135,70,-11.7958591735352,-9.48772997893262
0.914,135,72,-12.1110317501326,-10.5006933526102
0.914,135,74,-12.4237651485943,-11.5412984802859
0.914,135,76,-12.7336876623917,-12.6006620021499
0.914,135,78,-13.0405140696298,-13.66342410721
0.914,135,80,-13.3440547665253,-14.7048453520152
0.914,135,82,-13.6442242813078,-15.6881010325741
0.914,135,84,-13.9410490122572,-16.5639288718458
0.914,135,86,-14.2346740773098,-17.2761818459575
0.914,135,88,-14.5253692185845,-17.7756930819424
0.914,135,90,-14.81353376873,-18.0383672094244
0.914,135,92,-15.0997007511754,-18.075792803004
0.914,135,94,-15.3845402464096,-17.9295873233481
0.914,135,96,-15.6688622045091,-17.6542967737
0.914,135,98,-15.9536189141855,-17.3012243548227
0.914,135,100,-16.2399073457706,-16.9101917184711
0.914,135,102,-16.5289715663254,-16.5083551703026
0.914,135,104,-16.8222053771205,-16.1124392764604
0.914,135,106,-17.1211552448804,-15.7316963589166
0.914,135,108,-17.4275234847993,-15.3704206167955
0.914,135,110,-17.7431714977016,-15.0297565521918
0.914,135,112,-18.07012265028,-14.7088962656818
0.914,135,114,-18.4105640869604,-14.4058377093965
0.914,135,116,-18.7668463233436,-14.1178557243717
0.914,135,118,-19.141478807711,-13.8417973197956
0.914,135,120,-19.5371186059436,-13.5742772417904
0.914,135,122,-19.9565477346722,-13.3118239218615
0.914,135,124,-20.402632066066,-13.0510076128368
0.914,135,126,-20.8782505682126,-12.7885691202361
0.914,135,128,-21.3861770216145,-12.5215568569778
0.914,135,130,-21.9288859315471,-12.2474708698797
0.914,135,132,-22.5082383638805,-11.9644049292226
0.914,135,134,-23.124980068084,-11.6711724584619
0.914,135,136,-23.7779534587303,-11.3674000497155
0.914,135,138,-24.462893895541,-11.0535742721776
0.914,135,140,-25.170677120396,-10.7310332274605
0.914,135,142,-25.8849850774739,-10.4019024916934
0.914,135,144,-26.5797213444121,-10.0689835517609
0.914,135,146,-27.2173468377799,-9.7356093822561
0.914,135,148,-27.7505610950488,-9.40548495900635
0.914,135,150,-28.1302729970984,-9.08252998517257
0.914,135,152,-28.320062646118,-8.77073771566735
0.914,135,154,-28.3107511972032,-8.47405888400864
0.914,135,156,-28.1248478021383,-8.19631474220025
0.914,135,158,-27.8072390875913,-7.94113909879753
0.914,135,160,-27.4094842989937,-7.71194643506506
0.914,135,162,-26.9774729239137,-7.51192170255537
0.914,135,164,-26.5461208632634,-7.34402700033275
0.914,135,166,-26.13932554616,-7.21102064520555
0.914,135,168,-25.7722019947573,-7.11548485447859
0.914,135,170,-25.4536617901316,-7.05985910507873
0.914,135,172,-25.18854805774,-7.04647704804997
0.914,135,174,-24.9791778943143,-7.07760554532573
0.914,135,176,-24.8263825714301,-7.15548490181549
0.914,135,178,-24.7301825586829,-7.2823696511624
0.914,135,180,-24.6902139844191,-7.46056926557686
