"Freq [GHz]","Phi [deg]","Theta [deg]","dB(GainPhi) []","dB(GainTheta) []"
0.914,0,-180,-40.0841384375413,-7.4859220932377
0.914,0,-178,-40.1109289920741,-7.28070405535607
0.914,0,-176,-40.2128149767731,-7.12903685938694
0.914,0,-174,-40.3908689814088,-7.02896168412675
0.914,0,-172,-40.6454352033934,-6.97885625766128
0.914,0,-170,-40.9754275652971,-6.97738849165854
0.914,0,-168,-41.3771319518163,-7.02347672199919
0.914,0,-166,-41.8422361460455,-7.11625475444382
0.914,0,-164,-42.3547732825917,-7.25503978823208
0.914,0,-162,-42.8868761632175,-7.4393010652958
0.914,0,-160,-43.3941788362668,-7.66862668166992
0.914,0,-158,-43.813995103893,-7.94268531165449
0.914,0,-156,-44.0724229540285,-8.26117852447304
0.914,0,-154,-44.1053837263534,-8.62377777539894
0.914,0,-152,-43.8865778603445,-9.03003785230925
0.914,0,-150,-43.4409688521164,-9.47927536561286
0.914,0,-148,-42.8307878328882,-9.97039666157053
0.914,0,-146,-42.1275286123784,-10.5016544659419
0.914,0,-144,-41.3911817616001,-11.0703075238209
0.914,0,-142,-40.6633817605973,-11.6721551145595
0.914,0,-140,-39.9693389601821,-12.3009247049519
0.914,0,-138,-39.322453873825,-12.9475183435199
0.914,0,-136,-38.7285458126105,-13.5991918742638
0.914,0,-134,-38.1888907813957,-14.2388744785541
0.914,0,-132,-37.7021808843671,-14.8450381409091
0.914,0,-130,-37.2657201825473,-15.3927230210529
0.914,0,-128,-36.8761318601075,-15.8562937059569
0.914,0,-126,-36.5297671881363,-16.2139275691319
0.914,0,-124,-36.2229366173666,-16.4526813126475
0.914,0,-122,-35.952035737028,-16.5719718244582
0.914,0,-120,-35.71360907533,-16.5836188758215
0.914,0,-118,-35.5043768004803,-16.5084129811641
0.914,0,-116,-35.3212388092123,-16.37101749421
0.914,0,-114,-35.1612645445024,-16.1953793347637
0.914,0,-112,-35.0216733846089,-16.0018367036689
0.914,0,-110,-34.8998085328467,-15.8059446810215
0.914,0,-108,-34.7931063880476,-15.6184438567598
0.914,0,-106,-34.6990630225769,-15.4457530576814
0.914,0,-104,-34.6151994208143,-15.2905616712531
0.914,0,-102,-34.5390274035973,-15.1523051659492
0.914,0,-100,-34.4680185935605,-15.0274541229841
0.914,0,-98,-34.3995792851706,-14.9096390004879
0.914,0,-96,-34.3310345813465,-14.7896978726818
0.914,0,-94,-34.2596255224955,-14.6557931017222
0.914,0,-92,-34.1825229951935,-14.4937954846592
0.914,0,-90,-34.0968617584931,-14.2881518947104
0.914,0,-88,-33.9997967515123,-14.0233783275011
0.914,0,-86,-33.8885817949447,-13.6861042916663
0.914,0,-84,-33.7606678833318,-13.2672678660474
0.914,0,-82,-33.6138147638681,-12.7637962033995
0.914,0,-80,-33.4462060123063,-12.1791425712327
0.914,0,-78,-33.2565552084572,-11.5224643749986
0.914,0,-76,-33.0441899899165,-10.8067841920741
0.914,0,-74,-32.8091023452058,-10.0468123372657
0.914,0,-72,-32.5519575152825,-9.2570607414086
0.914,0,-70,-32.2740595875401,-8.45057949658267
0.914,0,-68,-31.9772780004464,-7.63833967759041
0.914,0,-66,-31.6639442969108,-6.82910891620419
0.914,0,-64,-31.3367314881144,-6.02962407448275
0.914,0,-62,-30.9985289157072,-5.24489984815709
0.914,0,-60,-30.6523238404036,-4.4785683543701
0.914,0,-58,-30.3010979296505,-3.73319354759789
0.914,0,-56,-29.9477432910246,-3.0105372425026
0.914,0,-54,-29.5949994683279,-2.31177226997812
0.914,0,-52,-29.2454103448087,-1.63764731154314
0.914,0,-50,-28.9012983322733,-0.988611277493517
0.914,0,-48,-28.5647524884126,-0.364905487816024
0.914,0,-46,-28.2376271010689,0.23336897351399
0.914,0,-44,-27.9215475828333,0.806202657095298
0.914,0,-42,-27.6179210355714,1.35364311707784
0.914,0,-40,-27.3279494269086,1.87577058830052
0.914,0,-38,-27.052643877091,2.37268121582389
0.914,0,-36,-26.7928390361771,2.84447578570641
0.914,0,-34,-26.5492069200341,3.29125244008461
0.914,0,-32,-26.3222698697705,3.71310225824408
0.914,0,-30,-26.1124125135831,4.11010687985361
0.914,0,-28,-25.9198927569372,4.48233756282564
0.914,0,-26,-25.7448519212322,4.82985522674582
0.914,0,-24,-25.5873242058007,5.15271114902673
0.914,0,-22,-25.4472456740694,5.4509480664899
0.914,0,-20,-25.3244629704064,5.72460149850655
0.914,0,-18,-25.2187419657443,5.9737011553194
0.914,0,-16,-25.1297765117555,6.19827233115708
0.914,0,-14,-25.0571974578593,6.39833720935511
0.914,0,-12,-25.0005820542031,6.57391602807149
0.914,0,-10,-24.9594638276968,6.72502807178981
0.914,0,-8,-24.9333429775082,6.85169246661091
0.914,0,-6,-24.9216972913459,6.95392876698112
0.914,0,-4,-24.9239935348559,7.03175732841415
0.914,0,-2,-24.9396992145466,7.08519946522907
0.914,0,0,-24.9682945616325,7.11427739458219
0.914,0,2,-25.0092845326827,7.11901396832724
0.914,0,4,-25.0622105764441,7.09943219270899
0.914,0,6,-25.126661878685,7.05555453280683
0.914,0,8,-25.2022857725879,6.98740199422696
0.914,0,10,-25.2887969949086,6.89499296902152
0.914,0,12,-25.3859854806882,6.77834182639022
0.914,0,14,-25.4937224230672,6.63745722154805
0.914,0,16,-25.6119643791272,6.47234008830801
0.914,0,18,-25.7407552749812,6.28298127242709
0.914,0,20,-25.8802262489372,6.06935875349636
0.914,0,22,-26.0305933643525,5.8314343929095
0.914,0,24,-26.1921533168594,5.56915013389696
0.914,0,26,-26.3652773470469,5.28242356633723
0.914,0,28,-26.5504036433066,4.97114275352685
0.914,0,30,-26.7480285757223,4.63516019970191
0.914,0,32,-26.9586971378039,4.27428581519152
0.914,0,34,-27.1829929877556,3.88827870996268
0.914,0,36,-27.4215284759147,3.47683761533478
0.914,0,38,-27.6749350226192,3.03958969729418
0.914,0,40,-27.9438541747239,2.576077482954
0.914,0,42,-28.2289296234715,2.08574357482143
0.914,0,44,-28.5308004156703,1.56791277759759
0.914,0,46,-28.8500955380075,1.02177121389345
0.914,0,48,-29.1874300040985,0.446341968292482
0.914,0,50,-29.5434025280321,-0.159543206887688
0.914,0,52,-29.9185948284234,-0.797276528263426
0.914,0,54,-30.3135725742974,-1.46851136140766
0.914,0,56,-30.7288879588633,-2.17520366405319
0.914,0,58,-31.1650838693216,-2.91965639176453
0.914,0,60,-31.6226996099554,-3.70456350412419
0.914,0,62,-32.1022781315235,-4.53304613938943
0.914,0,64,-32.6043747222304,-5.40866556064631
0.914,0,66,-33.1295671245509,-6.33538191577273
0.914,0,68,-33.6784670588983,-7.31739741565581
0.914,0,70,-34.2517331615911,-8.35876301740696
0.914,0,72,-34.8500853842872,-9.4625123228303
0.914,0,74,-35.4743209606155,-10.6288693428907
0.914,0,76,-36.1253321315346,-11.8517008485232
0.914,0,78,-36.8041259463121,-13.1118743217785
0.914,0,80,-37.5118466386788,-14.3660740584605
0.914,0,82,-38.2498013429869,-15.5321968367049
0.914,0,84,-39.0194902991375,-16.4826829639353
0.914,0,86,-39.8226432489849,-17.0734055621845
0.914,0,88,-40.6612645242002,-17.2213606146262
0.914,0,90,-41.5376904712883,-16.9675327271178
0.914,0,92,-42.4546645044935,-16.4449454522579
0.914,0,94,-43.4154374378097,-15.7946602106891
0.914,0,96,-44.4239041288314,-15.1171993744234
0.914,0,98,-45.484792286384,-14.4697809654086
0.914,0,100,-46.6039260645444,-13.8802019124815
0.914,0,102,-47.7885962327471,-13.3597643512118
0.914,0,104,-49.0480799373109,-12.9114981744601
0.914,0,106,-50.3943626355492,-12.5347013050398
0.914,0,108,-51.8431064957915,-12.2272896690147
0.914,0,110,-53.414822602865,-11.9869705777525
0.914,0,112,-55.1358158848964,-11.8118127488469
0.914,0,114,-57.0369518234661,-11.7005162128193
0.914,0,116,-59.1425047562515,-11.6525387172837
0.914,0,118,-61.420307123265,-11.6681589312005
0.914,0,120,-63.6091903189042,-11.7485172829003
0.914,0,122,-64.9174883024935,-11.8956540806119
0.914,0,124,-64.5341609293184,-12.1125513254708
0.914,0,126,-62.9639334777666,-12.4031724749775
0.914,0,128,-61.1239967382394,-12.7724764051714
0.914,0,130,-59.3915998289716,-13.2263468551013
0.914,0,132,-57.8304481738743,-13.7713044180948
0.914,0,134,-56.4181177223675,-14.4137069126614
0.914,0,136,-55.1196416059243,-15.1577951492732
0.914,0,138,-53.9054287576348,-16.0012158234019
0.914,0,140,-52.7541941894981,-16.9253324138173
0.914,0,142,-51.6521976977936,-17.8762171853984
0.914,0,144,-50.5917095824542,-18.7354258580292
0.914,0,146,-49.5694519071291,-19.3030438660588
0.914,0,148,-48.585219886975,-19.3613810253708
0.914,0,150,-47.6407492206993,-18.8381845705196
0.914,0,152,-46.7388463393948,-17.8778195081764
0.914,0,154,-45.8827681072521,-16.7071722187282
0.914,0,156,-45.07581627991,-15.4979485282912
0.914,0,158,-44.3211013447689,-14.341647191571
0.914,0,160,-43.6214295183283,-13.276485929689
0.914,0,162,-42.9792724378815,-12.3135743404968
0.914,0,164,-42.3967877741899,-11.4520265631746
0.914,0,166,-41.8758678401062,-10.6863172292851
0.914,0,168,-41.4182007530884,-10.0095926655939
0.914,0,170,-41.0253342751546,-9.4150726659182
0.914,0,172,-40.6987361004897,-8.89658724888603
0.914,0,174,-40.4398462844167,-8.44873254353719
0.914,0,176,-40.2501178634363,-8.06686611885712
0.914,0,178,-40.1310404618824,-7.7470409777342
0.914,0,180,-40.0841384375413,-7.4859220932377
0.914,90.0000000000002,-180,-7.4859220932377,-40.0841384375409
0.914,90.0000000000002,-178,-7.51260279279652,-42.534570383999
0.914,90.0000000000002,-176,-7.58169185481596,-32.8382183029882
0.914,90.0000000000002,-174,-7.69290386063008,-28.2916097539037
0.914,90.0000000000002,-172,-7.84576310182262,-25.34725376155
0.914,90.0000000000002,-170,-8.03953405809782,-23.1887343937639
0.914,90.0000000000002,-168,-8.27311751520411,-21.5017423094478
0.914,90.0000000000002,-166,-8.54490330598407,-20.1320747211229
0.914,90.0000000000002,-164,-8.85256858118135,-18.9925190720792
0.914,90.0000000000002,-162,-9.19280995177102,-18.0288481018695
0.914,90.0000000000002,-160,-9.56100107413123,-17.2049580120702
0.914,90.0000000000002,-158,-9.95077842548056,-16.4955233911448
0.914,90.0000000000002,-156,-10.3535836218612,-15.8820249280153
0.914,90.0000000000002,-154,-10.7582384730873,-15.3504473807725
0.914,90.0000000000002,-152,-11.1507030028518,-14.8898701641998
0.914,90.0000000000002,-150,-11.5142540202831,-14.4915648395946
0.914,90.0000000000002,-148,-11.8303728152658,-14.1483950865623
0.914,90.0000000000002,-146,-12.0805497718585,-13.8544047551269
0.914,90.0000000000002,-144,-12.2489066709222,-13.604526989842
0.914,90.0000000000002,-142,-12.3250419898071,-13.3943736349119
0.914,90.0000000000002,-140,-12.3061079902471,-13.220079263674
0.914,90.0000000000002,-138,-12.1972316319554,-13.0781832458109
0.914,90.0000000000002,-136,-12.0100844622877,-12.9655388878837
0.914,90.0000000000002,-134,-11.7602412677415,-12.879242278541
0.914,90.0000000000002,-132,-11.4643525128449,-12.8165758392718
0.914,90.0000000000002,-130,-11.1379372877457,-12.7749631893535
0.914,90.0000000000002,-128,-10.7941020973189,-12.7519330561594
0.914,90.0000000000002,-126,-10.4430825067059,-12.7450907664538
0.914,90.0000000000002,-124,-10.0923319152617,-12.7520964420544
0.914,90.0000000000002,-122,-9.74688850435301,-12.7706494541196
0.914,90.0000000000002,-120,-9.40983181388584,-12.7984789968637
0.914,90.0000000000002,-118,-9.08272368219363,-12.8333408377115
0.914,90.0000000000002,-116,-8.7659878696493,-12.8730203884558
0.914,90.0000000000002,-114,-8.45921726501439,-12.9153422156448
0.914,90.0000000000002,-112,-8.16141427267061,-12.9581859618119
0.914,90.0000000000002,-110,-7.87117615063429,-12.9995083811866
0.914,90.0000000000002,-108,-7.58683788048098,-13.0373708153389
0.914,90.0000000000002,-106,-7.30658363144744,-13.0699709753193
0.914,90.0000000000002,-104,-7.02853560015066,-13.0956774086468
0.914,90.0000000000002,-102,-6.75082668737111,-13.1130645836553
0.914,90.0000000000002,-100,-6.47166140427263,-13.1209462040738
0.914,90.0000000000002,-98,-6.1893676768996,-13.1184042542445
0.914,90.0000000000002,-96,-5.90244086042313,-13.1048114289267
0.914,90.0000000000002,-94,-5.60958028313817,-13.0798450394728
0.914,90.0000000000002,-92,-5.30971800905162,-13.0434911767248
0.914,90.0000000000002,-90,-5.00203922311503,-12.9960387659576
0.914,90.0000000000002,-88,-4.68599367313973,-12.9380640505834
0.914,90.0000000000002,-86,-4.36129789051423,-12.870406859061
0.914,90.0000000000002,-84,-4.02792837587846,-12.794140631975
0.914,90.0000000000002,-82,-3.68610647646889,-12.7105385435423
0.914,90.0000000000002,-80,-3.33627619716998,-12.6210381261528
0.914,90.0000000000002,-78,-2.97907659053083,-12.5272066294059
0.914,90.0000000000002,-76,-2.61531060443078,-12.4307089829182
0.914,90.0000000000002,-74,-2.24591230830935,-12.3332797669824
0.914,90.0000000000002,-72,-1.87191428344182,-12.236700106283
0.914,90.0000000000002,-70,-1.49441668950198,-12.142779952826
0.914,90.0000000000002,-68,-1.11455916236793,-12.0533458566516
0.914,90.0000000000002,-66,-0.733496311912534,-11.9702340566115
0.914,90.0000000000002,-64,-0.35237722016377,-11.8952885607901
0.914,90.0000000000002,-62,0.0276709772839887,-11.8303638178535
0.914,90.0000000000002,-60,0.405555592464763,-11.7773315921017
0.914,90.0000000000002,-58,0.780227310020378,-11.7380917312098
0.914,90.0000000000002,-56,1.15068598417154,-11.7145866445584
0.914,90.0000000000002,-54,1.5159838056012,-11.708819484988
0.914,90.0000000000002,-52,1.87522634197182,-11.7228762478186
0.914,90.0000000000002,-50,2.22757193095793,-11.7589522760877
0.914,90.0000000000002,-48,2.57222986078525,-11.8193840078038
0.914,90.0000000000002,-46,2.90845771949957,-11.9066872496912
0.914,90.0000000000002,-44,3.23555823719807,-12.0236038601201
0.914,90.0000000000002,-42,3.5528758896342,-12.1731595459706
0.914,90.0000000000002,-40,3.85979347953236,-12.3587366406581
0.914,90.0000000000002,-38,4.15572886487097,-12.5841674196804
0.914,90.0000000000002,-36,4.44013196168258,-12.8538560302826
0.914,90.0000000000002,-34,4.71248211243568,-13.1729409741177
0.914,90.0000000000002,-32,4.97228587941698,-13.5475161689573
0.914,90.0000000000002,-30,5.21907529527633,-13.9849385034267
0.914,90.0000000000002,-28,5.45240657961727,-14.4942664051143
0.914,90.0000000000002,-26,5.67185931088712,-15.0869028996505
0.914,90.0000000000002,-24,5.87703602660343,-15.7775693546873
0.914,90.0000000000002,-22,6.06756221197389,-16.5858370157852
0.914,90.0000000000002,-20,6.24308662708977,-17.5386484790941
0.914,90.0000000000002,-18,6.40328191595943,-18.6747089927703
0.914,90.0000000000002,-16,6.5478454365402,-20.0526965103597
0.914,90.0000000000002,-14,6.67650024941718,-21.76809919709
0.914,90.0000000000002,-12,6.78899620361357,-23.9923813358109
0.914,90.0000000000002,-10,6.88511106089829,-27.0822532119365
0.914,90.0000000000002,-8,6.96465160454853,-31.9830003496987
0.914,90.0000000000002,-6,7.02745468447554,-41.673503236568
0.914,90.0000000000002,-4,7.07338815757931,-35.2690647448752
0.914,90.0000000000002,-2,7.10235168983031,-28.7368596461557
0.914,90.0000000000002,0,7.11427739458219,-24.9682945616324
0.914,90.0000000000002,2,7.10913028974298,-22.3529975019187
0.914,90.0000000000002,4,7.08690856446289,-20.3675066379967
0.914,90.0000000000002,6,7.0476436537725,-18.7817847983602
0.914,90.0000000000002,8,6.99140012700604,-17.4748052439502
0.914,90.0000000000002,10,6.91827540278497,-16.3750983507909
0.914,90.0000000000002,12,6.82839930975781,-15.4369181473497
0.914,90.0000000000002,14,6.72193351814561,-14.6291809618719
0.914,90.0000000000002,16,6.59907087238651,-13.9297625199114
0.914,90.0000000000002,18,6.46003465975899,-13.3223150027791
0.914,90.0000000000002,20,6.30507785373056,-12.7943768460191
0.914,90.0000000000002,22,6.13448237384664,-12.3361927974654
0.914,90.0000000000002,24,5.94855840614249,-11.9399465115681
0.914,90.0000000000002,26,5.74764382920464,-11.5992440352888
0.914,90.0000000000002,28,5.53210379097799,-11.3087559011814
0.914,90.0000000000002,30,5.30233048003628,-11.0639628510906
0.914,90.0000000000002,32,5.05874313210709,-10.8609712176257
0.914,90.0000000000002,34,4.8017883079345,-10.6963762878522
0.914,90.0000000000002,36,4.5319404718071,-10.5671594229554
0.914,90.0000000000002,38,4.24970289096357,-10.4706093575399
0.914,90.0000000000002,40,3.95560886424893,-10.4042610834566
0.914,90.0000000000002,42,3.65022327340836,-10.3658476815319
0.914,90.0000000000002,44,3.33414443178922,-10.3532617807704
0.914,90.0000000000002,46,3.00800618244507,-10.3645242288903
0.914,90.0000000000002,48,2.67248017015717,-10.3977581934967
0.914,90.0000000000002,50,2.32827817922281,-10.4511673707618
0.914,90.0000000000002,52,1.97615439069613,-10.5230173173394
0.914,90.0000000000002,54,1.61690736914405,-10.6116191807566
0.914,90.0000000000002,56,1.25138154053367,-10.7153153105235
0.914,90.0000000000002,58,0.880467871147536,-10.8324664053341
0.914,90.0000000000002,60,0.505103405263797,-10.9614400042074
0.914,90.0000000000002,62,0.126269271242439,-11.1006002705171
0.914,90.0000000000002,64,-0.255013271884242,-11.2482991537225
0.914,90.0000000000002,66,-0.637689193609923,-11.4028691473966
0.914,90.0000000000002,68,-1.02067889199187,-11.5626179937696
0.914,90.0000000000002,70,-1.40289061712197,-11.7258258104851
0.914,90.0000000000002,72,-1.78323639577504,-11.8907452260131
0.914,90.0000000000002,74,-2.16065156924999,-12.0556051922594
0.914,90.0000000000002,76,-2.53411782699388,-12.2186191770701
0.914,90.0000000000002,78,-2.90268933152676,-12.377998401823
0.914,90.0000000000002,80,-3.2655212030601,-12.531970654668
0.914,90.0000000000002,82,-3.62189929521992,-12.6788049558903
0.914,90.0000000000002,84,-3.97126988758453,-12.8168419661782
0.914,90.0000000000002,86,-4.31326769325856,-12.9445295178672
0.914,90.0000000000002,88,-4.64774047465258,-13.0604620468112
0.914,90.0000000000002,90,-4.97476860895477,-13.1634220729597
0.914,90.0000000000002,92,-5.29467815395822,-13.2524213142599
0.914,90.0000000000002,94,-5.60804631226572,-13.3267386309515
0.914,90.0000000000002,96,-5.91569862385085,-13.3859518901456
0.914,90.0000000000002,98,-6.21869765515222,-13.4299610853976
0.914,90.0000000000002,100,-6.51832330583037,-13.459000656229
0.914,90.0000000000002,102,-6.81604503114165,-13.4736398697641
0.914,90.0000000000002,104,-7.11348619986731,-13.4747712256398
0.914,90.0000000000002,106,-7.41238041424267,-13.4635879591603
0.914,90.0000000000002,108,-7.71451886576951,-13.4415526758461
0.914,90.0000000000002,110,-8.02168665652541,-13.4103598184934
0.914,90.0000000000002,112,-8.335584452075,-13.3718949749474
0.914,90.0000000000002,114,-8.65772983092047,-13.3281939829891
0.914,90.0000000000002,116,-8.98933027699016,-13.2814044419386
0.914,90.0000000000002,118,-9.33111706745289,-13.2337517006183
0.914,90.0000000000002,120,-9.68312678066915,-13.1875107701787
0.914,90.0000000000002,122,-10.0444158777773,-13.1449850069163
0.914,90.0000000000002,124,-10.4126961223379,-13.1084918966321
0.914,90.0000000000002,126,-10.7838888959759,-13.0803558894641
0.914,90.0000000000002,128,-11.1516219720874,-13.0629079966486
0.914,90.0000000000002,130,-11.5067424819963,-13.0584917634394
0.914,90.0000000000002,132,-11.8370013146224,-13.0694752607527
0.914,90.0000000000002,134,-12.1271667291138,-13.098268875691
0.914,90.0000000000002,136,-12.3598968675508,-13.1473489164839
0.914,90.0000000000002,138,-12.5176329650506,-13.2192873789087
0.914,90.0000000000002,140,-12.585446140737,-13.3167886612246
0.914,90.0000000000002,142,-12.5542014705037,-13.4427345941568
0.914,90.0000000000002,144,-12.4229162795157,-13.6002399286263
0.914,90.0000000000002,146,-12.1992740493405,-13.7927214922936
0.914,90.0000000000002,148,-11.8980486466359,-14.0239857424232
0.914,90.0000000000002,150,-11.5381709123888,-14.2983416624127
0.914,90.0000000000002,152,-11.1396152513105,-14.6207492985826
0.914,90.0000000000002,154,-10.7210148430953,-14.9970194419557
0.914,90.0000000000002,156,-10.2983249211271,-15.4340883148062
0.914,90.0000000000002,158,-9.88439139171351,-15.9404049798342
0.914,90.0000000000002,160,-9.48910132062241,-16.5264930374704
0.914,90.0000000000002,162,-9.11981384533764,-17.2057909617631
0.914,90.0000000000002,164,-8.78186792374634,-17.9959559768305
0.914,90.0000000000002,166,-8.47905790057257,-18.920976906389
0.914,90.0000000000002,168,-8.2140325657191,-20.0147840283881
